EC-Lab ASCII FILE
Nb header lines : 60                          

Staircase Potentio Electrochemical Impedance Spectroscopy (Mott-Schottky)

Run on channel : 1 (SN 0633)
User : 
Electrode connection : standard
Ewe ctrl range : min = -10.00 V, max = 10.00 V
Ewe,I filtering : 50 kHz
Safety Limits :
	Do not start on E overload
Channel : Grounded
Acquisition started on : 01/18/2018 19:43:37
Saved on :
	File : pH14_EIS_light.mpr
	Directory : C:\Users\user\Desktop\Data\Florent\180117\1.7_O2\
	Host : 192.168.0.87
Device : SP-200 (SN 0001)
Address : 192.168.0.88
EC-Lab for windows v11.12 (software)
Internet server v11.12 (firmware)
Command interpretor v11.12 (firmware)
Electrode material : 
Initial state : 
Electrolyte : 
Comments : 
Cable : standard
Electrode surface area : 0.001 cm²
Characteristic mass : 0.001 g
Equivalent Weight : 0.000 g/eq.
Density : 0.000 g/cm3
Multi Sine          Single sine         
Ei (V)              0.1000              
vs.                 Ref                 
ts (h:m:s)          0:00:5.0000         
record              1                   
dI                  0.000               
unit dI             mA                  
dt (s)              0.100               
fi                  1.000               
unit fi             MHz                 
ff                  100.000             
unit ff             mHz                 
Nd                  10                  
Points              per decade          
spacing             Logarithmic         
Va (mV)             25.0                
pw                  0.10                
Na                  5                   
corr                0                   
E range min (V)     -10.000             
E range max (V)     10.000              
I Range             Auto                
Bandwidth           8                   
Ef (V)              -0.3000             
vs.                 Ref                 
N                   20                  

freq/Hz	Re(Z)/Ohm	-Im(Z)/Ohm	|Z|/Ohm	Phase(Z)/deg	time/s	<Ewe>/V	<I>/mA	Cs/µF	Cs-2/µF-2	Cp/µF	Cp-2/µF-2	cycle number	I Range	|Ewe|/V	|I|/A	Re(Y)/Ohm-1	Im(Y)/Ohm-1	|Y|/Ohm-1	Phase(Y)/deg
0.0000000E+000	0.0000000E+000	0.0000000E+000	0.0000000E+000	0.0000000E+000	3.806000181066338E-001	1.0048509E-001	1.7080909E-002	0.0000000E+000	0.0000000E+000	0.0000000E+000	0.0000000E+000	1.000000000000000E+000	41	0.0000000E+000	0.0000000E+000	0.0000000E+000	0.0000000E+000	0.0000000E+000	0.0000000E+000
0.0000000E+000	0.0000000E+000	0.0000000E+000	0.0000000E+000	0.0000000E+000	4.806000228563789E-001	1.0048850E-001	1.7032025E-002	0.0000000E+000	0.0000000E+000	0.0000000E+000	0.0000000E+000	1.000000000000000E+000	41	0.0000000E+000	0.0000000E+000	0.0000000E+000	0.0000000E+000	0.0000000E+000	0.0000000E+000
0.0000000E+000	0.0000000E+000	0.0000000E+000	0.0000000E+000	0.0000000E+000	5.816000276536215E-001	1.0048359E-001	1.6255796E-002	0.0000000E+000	0.0000000E+000	0.0000000E+000	0.0000000E+000	1.000000000000000E+000	41	0.0000000E+000	0.0000000E+000	0.0000000E+000	0.0000000E+000	0.0000000E+000	0.0000000E+000
0.0000000E+000	0.0000000E+000	0.0000000E+000	0.0000000E+000	0.0000000E+000	6.816000324033666E-001	1.0048862E-001	1.5516371E-002	0.0000000E+000	0.0000000E+000	0.0000000E+000	0.0000000E+000	1.000000000000000E+000	41	0.0000000E+000	0.0000000E+000	0.0000000E+000	0.0000000E+000	0.0000000E+000	0.0000000E+000
0.0000000E+000	0.0000000E+000	0.0000000E+000	0.0000000E+000	0.0000000E+000	7.816000371531118E-001	1.0048981E-001	1.4775219E-002	0.0000000E+000	0.0000000E+000	0.0000000E+000	0.0000000E+000	1.000000000000000E+000	41	0.0000000E+000	0.0000000E+000	0.0000000E+000	0.0000000E+000	0.0000000E+000	0.0000000E+000
0.0000000E+000	0.0000000E+000	0.0000000E+000	0.0000000E+000	0.0000000E+000	8.826000419503544E-001	1.0049143E-001	1.4068493E-002	0.0000000E+000	0.0000000E+000	0.0000000E+000	0.0000000E+000	1.000000000000000E+000	41	0.0000000E+000	0.0000000E+000	0.0000000E+000	0.0000000E+000	0.0000000E+000	0.0000000E+000
0.0000000E+000	0.0000000E+000	0.0000000E+000	0.0000000E+000	0.0000000E+000	9.836000467475969E-001	1.0050420E-001	1.3626331E-002	0.0000000E+000	0.0000000E+000	0.0000000E+000	0.0000000E+000	1.000000000000000E+000	41	0.0000000E+000	0.0000000E+000	0.0000000E+000	0.0000000E+000	0.0000000E+000	0.0000000E+000
0.0000000E+000	0.0000000E+000	0.0000000E+000	0.0000000E+000	0.0000000E+000	1.083600051497342E+000	1.0049010E-001	1.3168557E-002	0.0000000E+000	0.0000000E+000	0.0000000E+000	0.0000000E+000	1.000000000000000E+000	41	0.0000000E+000	0.0000000E+000	0.0000000E+000	0.0000000E+000	0.0000000E+000	0.0000000E+000
0.0000000E+000	0.0000000E+000	0.0000000E+000	0.0000000E+000	0.0000000E+000	1.183600056247087E+000	1.0049279E-001	1.2757800E-002	0.0000000E+000	0.0000000E+000	0.0000000E+000	0.0000000E+000	1.000000000000000E+000	41	0.0000000E+000	0.0000000E+000	0.0000000E+000	0.0000000E+000	0.0000000E+000	0.0000000E+000
0.0000000E+000	0.0000000E+000	0.0000000E+000	0.0000000E+000	0.0000000E+000	1.283600060996832E+000	1.0049221E-001	1.2428841E-002	0.0000000E+000	0.0000000E+000	0.0000000E+000	0.0000000E+000	1.000000000000000E+000	41	0.0000000E+000	0.0000000E+000	0.0000000E+000	0.0000000E+000	0.0000000E+000	0.0000000E+000
0.0000000E+000	0.0000000E+000	0.0000000E+000	0.0000000E+000	0.0000000E+000	1.383600065746577E+000	1.0049901E-001	1.2244801E-002	0.0000000E+000	0.0000000E+000	0.0000000E+000	0.0000000E+000	1.000000000000000E+000	41	0.0000000E+000	0.0000000E+000	0.0000000E+000	0.0000000E+000	0.0000000E+000	0.0000000E+000
0.0000000E+000	0.0000000E+000	0.0000000E+000	0.0000000E+000	0.0000000E+000	1.484600070543820E+000	1.0051787E-001	1.1960334E-002	0.0000000E+000	0.0000000E+000	0.0000000E+000	0.0000000E+000	1.000000000000000E+000	41	0.0000000E+000	0.0000000E+000	0.0000000E+000	0.0000000E+000	0.0000000E+000	0.0000000E+000
0.0000000E+000	0.0000000E+000	0.0000000E+000	0.0000000E+000	0.0000000E+000	1.584600075293565E+000	1.0051539E-001	1.1723006E-002	0.0000000E+000	0.0000000E+000	0.0000000E+000	0.0000000E+000	1.000000000000000E+000	41	0.0000000E+000	0.0000000E+000	0.0000000E+000	0.0000000E+000	0.0000000E+000	0.0000000E+000
0.0000000E+000	0.0000000E+000	0.0000000E+000	0.0000000E+000	0.0000000E+000	1.684600080043310E+000	1.0053004E-001	1.1594476E-002	0.0000000E+000	0.0000000E+000	0.0000000E+000	0.0000000E+000	1.000000000000000E+000	41	0.0000000E+000	0.0000000E+000	0.0000000E+000	0.0000000E+000	0.0000000E+000	0.0000000E+000
0.0000000E+000	0.0000000E+000	0.0000000E+000	0.0000000E+000	0.0000000E+000	1.784600084793055E+000	1.0050362E-001	1.1447620E-002	0.0000000E+000	0.0000000E+000	0.0000000E+000	0.0000000E+000	1.000000000000000E+000	41	0.0000000E+000	0.0000000E+000	0.0000000E+000	0.0000000E+000	0.0000000E+000	0.0000000E+000
0.0000000E+000	0.0000000E+000	0.0000000E+000	0.0000000E+000	0.0000000E+000	1.885600089590298E+000	1.0050576E-001	1.1181431E-002	0.0000000E+000	0.0000000E+000	0.0000000E+000	0.0000000E+000	1.000000000000000E+000	41	0.0000000E+000	0.0000000E+000	0.0000000E+000	0.0000000E+000	0.0000000E+000	0.0000000E+000
0.0000000E+000	0.0000000E+000	0.0000000E+000	0.0000000E+000	0.0000000E+000	1.985600094340043E+000	1.0051116E-001	1.1137983E-002	0.0000000E+000	0.0000000E+000	0.0000000E+000	0.0000000E+000	1.000000000000000E+000	41	0.0000000E+000	0.0000000E+000	0.0000000E+000	0.0000000E+000	0.0000000E+000	0.0000000E+000
0.0000000E+000	0.0000000E+000	0.0000000E+000	0.0000000E+000	0.0000000E+000	2.085600099089788E+000	1.0050656E-001	1.1042540E-002	0.0000000E+000	0.0000000E+000	0.0000000E+000	0.0000000E+000	1.000000000000000E+000	41	0.0000000E+000	0.0000000E+000	0.0000000E+000	0.0000000E+000	0.0000000E+000	0.0000000E+000
0.0000000E+000	0.0000000E+000	0.0000000E+000	0.0000000E+000	0.0000000E+000	2.186600103887031E+000	1.0051332E-001	1.0776083E-002	0.0000000E+000	0.0000000E+000	0.0000000E+000	0.0000000E+000	1.000000000000000E+000	41	0.0000000E+000	0.0000000E+000	0.0000000E+000	0.0000000E+000	0.0000000E+000	0.0000000E+000
0.0000000E+000	0.0000000E+000	0.0000000E+000	0.0000000E+000	0.0000000E+000	2.287600108684273E+000	1.0052221E-001	1.0763429E-002	0.0000000E+000	0.0000000E+000	0.0000000E+000	0.0000000E+000	1.000000000000000E+000	41	0.0000000E+000	0.0000000E+000	0.0000000E+000	0.0000000E+000	0.0000000E+000	0.0000000E+000
0.0000000E+000	0.0000000E+000	0.0000000E+000	0.0000000E+000	0.0000000E+000	2.387600113434019E+000	1.0051675E-001	1.0585909E-002	0.0000000E+000	0.0000000E+000	0.0000000E+000	0.0000000E+000	1.000000000000000E+000	41	0.0000000E+000	0.0000000E+000	0.0000000E+000	0.0000000E+000	0.0000000E+000	0.0000000E+000
0.0000000E+000	0.0000000E+000	0.0000000E+000	0.0000000E+000	0.0000000E+000	2.488600118231261E+000	1.0052548E-001	1.0547441E-002	0.0000000E+000	0.0000000E+000	0.0000000E+000	0.0000000E+000	1.000000000000000E+000	41	0.0000000E+000	0.0000000E+000	0.0000000E+000	0.0000000E+000	0.0000000E+000	0.0000000E+000
0.0000000E+000	0.0000000E+000	0.0000000E+000	0.0000000E+000	0.0000000E+000	2.588600122981006E+000	1.0051903E-001	1.0424627E-002	0.0000000E+000	0.0000000E+000	0.0000000E+000	0.0000000E+000	1.000000000000000E+000	41	0.0000000E+000	0.0000000E+000	0.0000000E+000	0.0000000E+000	0.0000000E+000	0.0000000E+000
0.0000000E+000	0.0000000E+000	0.0000000E+000	0.0000000E+000	0.0000000E+000	2.689600127778249E+000	1.0050914E-001	1.0434519E-002	0.0000000E+000	0.0000000E+000	0.0000000E+000	0.0000000E+000	1.000000000000000E+000	41	0.0000000E+000	0.0000000E+000	0.0000000E+000	0.0000000E+000	0.0000000E+000	0.0000000E+000
0.0000000E+000	0.0000000E+000	0.0000000E+000	0.0000000E+000	0.0000000E+000	2.790600132575491E+000	1.0053113E-001	1.0410943E-002	0.0000000E+000	0.0000000E+000	0.0000000E+000	0.0000000E+000	1.000000000000000E+000	41	0.0000000E+000	0.0000000E+000	0.0000000E+000	0.0000000E+000	0.0000000E+000	0.0000000E+000
0.0000000E+000	0.0000000E+000	0.0000000E+000	0.0000000E+000	0.0000000E+000	2.890600137325237E+000	1.0051823E-001	1.0374924E-002	0.0000000E+000	0.0000000E+000	0.0000000E+000	0.0000000E+000	1.000000000000000E+000	41	0.0000000E+000	0.0000000E+000	0.0000000E+000	0.0000000E+000	0.0000000E+000	0.0000000E+000
0.0000000E+000	0.0000000E+000	0.0000000E+000	0.0000000E+000	0.0000000E+000	2.991600142122479E+000	1.0050266E-001	1.0186151E-002	0.0000000E+000	0.0000000E+000	0.0000000E+000	0.0000000E+000	1.000000000000000E+000	41	0.0000000E+000	0.0000000E+000	0.0000000E+000	0.0000000E+000	0.0000000E+000	0.0000000E+000
0.0000000E+000	0.0000000E+000	0.0000000E+000	0.0000000E+000	0.0000000E+000	3.091600146872224E+000	1.0050482E-001	1.0126344E-002	0.0000000E+000	0.0000000E+000	0.0000000E+000	0.0000000E+000	1.000000000000000E+000	41	0.0000000E+000	0.0000000E+000	0.0000000E+000	0.0000000E+000	0.0000000E+000	0.0000000E+000
0.0000000E+000	0.0000000E+000	0.0000000E+000	0.0000000E+000	0.0000000E+000	3.192600151669467E+000	1.0052110E-001	1.0108424E-002	0.0000000E+000	0.0000000E+000	0.0000000E+000	0.0000000E+000	1.000000000000000E+000	41	0.0000000E+000	0.0000000E+000	0.0000000E+000	0.0000000E+000	0.0000000E+000	0.0000000E+000
0.0000000E+000	0.0000000E+000	0.0000000E+000	0.0000000E+000	0.0000000E+000	3.293600156466709E+000	1.0051777E-001	9.9873999E-003	0.0000000E+000	0.0000000E+000	0.0000000E+000	0.0000000E+000	1.000000000000000E+000	41	0.0000000E+000	0.0000000E+000	0.0000000E+000	0.0000000E+000	0.0000000E+000	0.0000000E+000
0.0000000E+000	0.0000000E+000	0.0000000E+000	0.0000000E+000	0.0000000E+000	3.393600161216455E+000	1.0050369E-001	9.9911001E-003	0.0000000E+000	0.0000000E+000	0.0000000E+000	0.0000000E+000	1.000000000000000E+000	41	0.0000000E+000	0.0000000E+000	0.0000000E+000	0.0000000E+000	0.0000000E+000	0.0000000E+000
0.0000000E+000	0.0000000E+000	0.0000000E+000	0.0000000E+000	0.0000000E+000	3.494600166013697E+000	1.0049997E-001	9.8691834E-003	0.0000000E+000	0.0000000E+000	0.0000000E+000	0.0000000E+000	1.000000000000000E+000	41	0.0000000E+000	0.0000000E+000	0.0000000E+000	0.0000000E+000	0.0000000E+000	0.0000000E+000
0.0000000E+000	0.0000000E+000	0.0000000E+000	0.0000000E+000	0.0000000E+000	3.594600170763442E+000	1.0049952E-001	9.8924534E-003	0.0000000E+000	0.0000000E+000	0.0000000E+000	0.0000000E+000	1.000000000000000E+000	41	0.0000000E+000	0.0000000E+000	0.0000000E+000	0.0000000E+000	0.0000000E+000	0.0000000E+000
0.0000000E+000	0.0000000E+000	0.0000000E+000	0.0000000E+000	0.0000000E+000	3.695600175560685E+000	1.0049818E-001	9.8732002E-003	0.0000000E+000	0.0000000E+000	0.0000000E+000	0.0000000E+000	1.000000000000000E+000	41	0.0000000E+000	0.0000000E+000	0.0000000E+000	0.0000000E+000	0.0000000E+000	0.0000000E+000
0.0000000E+000	0.0000000E+000	0.0000000E+000	0.0000000E+000	0.0000000E+000	3.796600180357927E+000	1.0050784E-001	9.8776454E-003	0.0000000E+000	0.0000000E+000	0.0000000E+000	0.0000000E+000	1.000000000000000E+000	41	0.0000000E+000	0.0000000E+000	0.0000000E+000	0.0000000E+000	0.0000000E+000	0.0000000E+000
0.0000000E+000	0.0000000E+000	0.0000000E+000	0.0000000E+000	0.0000000E+000	3.896600185107673E+000	1.0051079E-001	9.8004881E-003	0.0000000E+000	0.0000000E+000	0.0000000E+000	0.0000000E+000	1.000000000000000E+000	41	0.0000000E+000	0.0000000E+000	0.0000000E+000	0.0000000E+000	0.0000000E+000	0.0000000E+000
0.0000000E+000	0.0000000E+000	0.0000000E+000	0.0000000E+000	0.0000000E+000	3.997600189904915E+000	1.0050328E-001	9.6835708E-003	0.0000000E+000	0.0000000E+000	0.0000000E+000	0.0000000E+000	1.000000000000000E+000	41	0.0000000E+000	0.0000000E+000	0.0000000E+000	0.0000000E+000	0.0000000E+000	0.0000000E+000
0.0000000E+000	0.0000000E+000	0.0000000E+000	0.0000000E+000	0.0000000E+000	4.098600194702158E+000	1.0049728E-001	9.6749486E-003	0.0000000E+000	0.0000000E+000	0.0000000E+000	0.0000000E+000	1.000000000000000E+000	41	0.0000000E+000	0.0000000E+000	0.0000000E+000	0.0000000E+000	0.0000000E+000	0.0000000E+000
0.0000000E+000	0.0000000E+000	0.0000000E+000	0.0000000E+000	0.0000000E+000	4.199600199499400E+000	1.0050767E-001	9.6770329E-003	0.0000000E+000	0.0000000E+000	0.0000000E+000	0.0000000E+000	1.000000000000000E+000	41	0.0000000E+000	0.0000000E+000	0.0000000E+000	0.0000000E+000	0.0000000E+000	0.0000000E+000
0.0000000E+000	0.0000000E+000	0.0000000E+000	0.0000000E+000	0.0000000E+000	4.300600204296643E+000	1.0050053E-001	9.6726799E-003	0.0000000E+000	0.0000000E+000	0.0000000E+000	0.0000000E+000	1.000000000000000E+000	41	0.0000000E+000	0.0000000E+000	0.0000000E+000	0.0000000E+000	0.0000000E+000	0.0000000E+000
0.0000000E+000	0.0000000E+000	0.0000000E+000	0.0000000E+000	0.0000000E+000	4.400600209046388E+000	1.0050292E-001	9.5881363E-003	0.0000000E+000	0.0000000E+000	0.0000000E+000	0.0000000E+000	1.000000000000000E+000	41	0.0000000E+000	0.0000000E+000	0.0000000E+000	0.0000000E+000	0.0000000E+000	0.0000000E+000
0.0000000E+000	0.0000000E+000	0.0000000E+000	0.0000000E+000	0.0000000E+000	4.501600213843631E+000	1.0049684E-001	9.5482599E-003	0.0000000E+000	0.0000000E+000	0.0000000E+000	0.0000000E+000	1.000000000000000E+000	41	0.0000000E+000	0.0000000E+000	0.0000000E+000	0.0000000E+000	0.0000000E+000	0.0000000E+000
0.0000000E+000	0.0000000E+000	0.0000000E+000	0.0000000E+000	0.0000000E+000	4.602600218640873E+000	1.0050250E-001	9.5443539E-003	0.0000000E+000	0.0000000E+000	0.0000000E+000	0.0000000E+000	1.000000000000000E+000	41	0.0000000E+000	0.0000000E+000	0.0000000E+000	0.0000000E+000	0.0000000E+000	0.0000000E+000
0.0000000E+000	0.0000000E+000	0.0000000E+000	0.0000000E+000	0.0000000E+000	4.703600223438116E+000	1.0049955E-001	9.5504606E-003	0.0000000E+000	0.0000000E+000	0.0000000E+000	0.0000000E+000	1.000000000000000E+000	41	0.0000000E+000	0.0000000E+000	0.0000000E+000	0.0000000E+000	0.0000000E+000	0.0000000E+000
0.0000000E+000	0.0000000E+000	0.0000000E+000	0.0000000E+000	0.0000000E+000	4.804600228235358E+000	1.0049852E-001	9.4575603E-003	0.0000000E+000	0.0000000E+000	0.0000000E+000	0.0000000E+000	1.000000000000000E+000	41	0.0000000E+000	0.0000000E+000	0.0000000E+000	0.0000000E+000	0.0000000E+000	0.0000000E+000
0.0000000E+000	0.0000000E+000	0.0000000E+000	0.0000000E+000	0.0000000E+000	4.905600233032601E+000	1.0050316E-001	9.4936443E-003	0.0000000E+000	0.0000000E+000	0.0000000E+000	0.0000000E+000	1.000000000000000E+000	41	0.0000000E+000	0.0000000E+000	0.0000000E+000	0.0000000E+000	0.0000000E+000	0.0000000E+000
0.0000000E+000	0.0000000E+000	0.0000000E+000	0.0000000E+000	0.0000000E+000	5.005600237782346E+000	1.0050408E-001	9.4800908E-003	0.0000000E+000	0.0000000E+000	0.0000000E+000	0.0000000E+000	1.000000000000000E+000	41	0.0000000E+000	0.0000000E+000	0.0000000E+000	0.0000000E+000	0.0000000E+000	0.0000000E+000
1.0000193E+006	3.5001698E+001	1.5263631E+001	3.8185040E+001	-2.3561178E+001	6.964098570781061E+000	1.0001160E-001	5.0689476E-003	1.0426868E-002	9.1979756E+003	1.6660312E-003	3.6027469E+005	1.000000000000000E+000	39	2.2946194E-002	6.0092105E-004	2.4005050E-002	1.0468185E-002	2.6188267E-002	2.3561178E+001
7.9167950E+005	3.6570293E+001	1.2823802E+001	3.8753532E+001	-1.9323816E+001	7.720099966652924E+000	1.0035039E-001	1.1124477E-002	1.5676674E-002	4.0690415E+003	1.7165835E-003	3.3936741E+005	1.000000000000000E+000	39	2.5394881E-002	6.5529207E-004	2.4350386E-002	8.5387481E-003	2.5804099E-002	1.9323816E+001
6.2675769E+005	3.7635883E+001	1.0859548E+001	3.9171284E+001	-1.6095093E+001	8.476113629265456E+000	1.0035552E-001	1.1111996E-002	2.3383459E-002	1.8288687E+003	1.7972008E-003	3.0960419E+005	1.000000000000000E+000	39	2.5850171E-002	6.5992656E-004	2.4528246E-002	7.0774388E-003	2.5528906E-002	1.6095093E+001
4.9619131E+005	3.8497204E+001	9.3274307E+000	3.9611053E+001	-1.3619651E+001	9.233109585213242E+000	1.0036819E-001	1.0877815E-002	3.4388158E-002	8.4563342E+002	1.9067783E-003	2.7504238E+005	1.000000000000000E+000	39	2.5877964E-002	6.5330160E-004	2.4535583E-002	5.9446907E-003	2.5245478E-002	1.3619651E+001
3.9283194E+005	3.9182819E+001	8.1709232E+000	4.0025707E+001	-1.1779270E+001	9.989104981097626E+000	1.0037244E-001	1.0829189E-002	4.9584076E-002	4.0673874E+002	2.0663622E-003	2.3420013E+005	1.000000000000000E+000	39	2.5789933E-002	6.4433424E-004	2.4457814E-002	5.1002689E-003	2.4983943E-002	1.1779270E+001
3.1099603E+005	3.9803177E+001	7.3327122E+000	4.0472973E+001	-1.0438238E+001	1.074609864372178E+001	1.0033453E-001	1.0834220E-002	6.9791198E-002	2.0530463E+002	2.2908661E-003	1.9054633E+005	1.000000000000000E+000	39	2.5847720E-002	6.3864148E-004	2.4298951E-002	4.4764569E-003	2.4707846E-002	1.0438238E+001
2.4621089E+005	4.0440243E+001	6.7314267E+000	4.0996651E+001	-9.4504480E+000	1.150211147961090E+001	1.0033809E-001	1.0640839E-002	9.6029736E-002	1.0843975E+002	2.5889475E-003	1.4919473E+005	1.000000000000000E+000	39	2.5804192E-002	6.2942196E-004	2.4061184E-002	4.0050726E-003	2.4392236E-002	9.4504480E+000
1.9492183E+005	4.1125725E+001	6.2436852E+000	4.1596981E+001	-8.6326914E+000	1.225910383558949E+001	1.0034872E-001	1.0548992E-002	1.3077317E-001	5.8473988E+001	2.9463004E-003	1.1519827E+005	1.000000000000000E+000	39	2.5809223E-002	6.2045903E-004	2.3767851E-002	3.6084221E-003	2.4040205E-002	8.6326914E+000
1.5431638E+005	4.1885185E+001	5.8117685E+000	4.2286469E+001	-7.8996224E+000	1.301609627154539E+001	1.0032214E-001	1.0453605E-002	1.7745973E-001	3.1754141E+001	3.3520740E-003	8.8996477E+004	1.000000000000000E+000	39	2.5864985E-002	6.1166100E-004	2.3423813E-002	3.2501654E-003	2.3648227E-002	7.8996224E+000
1.2216795E+005	4.2639355E+001	5.4137516E+000	4.2981663E+001	-7.2359042E+000	1.377211598746362E+001	1.0034914E-001	1.0481736E-002	2.4063820E-001	1.7269146E+001	3.8176384E-003	6.8613633E+004	1.000000000000000E+000	39	2.5800243E-002	6.0026161E-004	2.3080448E-002	2.9304337E-003	2.3265736E-002	7.2359042E+000
9.6718727E+004	4.3389675E+001	5.0340710E+000	4.3680725E+001	-6.6178699E+000	1.452909362342325E+001	1.0032188E-001	1.0504465E-002	3.2688141E-001	9.3587866E+000	4.3415939E-003	5.3051980E+004	1.000000000000000E+000	39	2.5794199E-002	5.9051672E-004	2.2740852E-002	2.6383940E-003	2.2893393E-002	6.6178699E+000
